LTspice 24.0.9 for Windows
Circuit: * C:\Users\Ditte\aauRepo\esd4\opg\Analog elektronik\examPrep\BJT\classicBJTDesign.asc
Start Time: Fri May 24 14:28:00 2024
Warning: Multiple definitions of model "2scr375p" Type: BJT
Warning: Multiple definitions of model "bc857b" Type: BJT
Warning: Multiple definitions of model "bc847c" Type: BJT
Warning: Multiple definitions of model "bc847b" Type: BJT
solver = Normal
Maximum thread count: 16
tnom = 27
temp = 27
method = modified trap
Direct Newton iteration for .op point succeeded.
Semiconductor Device Operating Points:
                        --- Bipolar Transistors ---
Name:       q1
Model:    bc547b
Ib:       3.32e-06
Ic:       1.00e-03
Vbe:      6.37e-01
Vbc:     -4.33e+00
Vce:      4.96e+00
BetaDC:   3.02e+02
Gm:       3.82e-02
Rpi:      7.87e+03
Rx:       1.00e+00
Ro:       6.57e+04
Cbe:      6.17e-11
Cbc:      1.11e-12
Cjs:      0.00e+00
BetaAC:   3.01e+02
Cbx:      6.84e-13
Ft:       9.58e+07


Note: .fourier statements are only valid with a .tran command.
      No Fourier analysis performed.

Total elapsed time: 0.084 seconds.

